Ex_Re,Ex_Im,Ey_Re,Ey_Im,Ez_Re,Ez_Im,Hx_Re,Hx_Im,Hy_Re,Hy_Im,Hz_Re,Hz_Im
3.533492242226242e-05,7.53660246882934e-05,-2.0807224060113744e-06,-4.277269084799595e-06,8.240325542075789e-06,1.7736543929713737e-05,9.96275150062548e-06,2.12572150582826e-05,3.410836513708607e-05,7.277596484865992e-05,-3.4108241279862984e-05,-7.277570057833034e-05
-0.00030505743996540186,-0.00024368938916763394,-4.7981992204027164e-05,-4.031586524530246e-05,0.00015582968319210674,0.0001064471690640622,9.73251129444859e-05,7.564352951044614e-05,-0.00045574567686245543,-0.00035421702080806056,5.019688242137877e-05,3.901428153430236e-05
-7.636046723872962e-05,-0.00010000985100443865,2.989546245007503e-05,3.819452987941386e-05,1.6512493168247553e-06,1.314704360497914e-06,-2.6248810515045688e-05,-3.4263676292279645e-05,-7.151712184113798e-05,-9.335430688242781e-05,8.094840299855723e-05,0.0001056653548216907
-0.00015182904291020927,3.867133408236019e-06,6.0220896408146214e-05,-2.292001557046685e-06,-8.515625376269778e-05,2.1606607648966486e-06,-0.00012283396636109285,3.291395500392303e-06,-2.377971854803469e-06,6.371890524117166e-08,0.0002173247311267508,-5.8233212143603014e-06
5.007420359462705e-05,-0.00013137000524316225,-7.863769144519765e-06,2.2104576537633393e-05,-1.179999906496601e-05,3.369263925260147e-05,1.8654990473421435e-06,-4.926402972349757e-06,6.205990142594316e-05,-0.00016388755774713118,-3.3441643229843894e-05,8.831256753654218e-05
-7.067530443207186e-06,2.3498418482405465e-06,-2.253002727893149e-05,8.846917691600516e-06,1.1592377483608113e-05,-4.8828147799291795e-06,1.877659301912412e-05,-7.398207978654629e-06,-1.831316439589387e-05,7.215611416305475e-06,-2.414448209751884e-05,9.513222122480621e-06
2.1669335749608006e-05,-4.230211757728312e-05,2.434501778203176e-05,-4.851250643893041e-05,-1.1749921525598585e-05,2.4231303163340778e-05,-2.3071452580590134e-05,4.5803836362304576e-05,3.250760004540852e-05,-6.45374532795475e-05,2.480485068106185e-05,-4.924515773846883e-05
-3.2270880364307537e-06,-9.865277891947348e-05,-1.1015040634673322e-06,-3.308142817354167e-05,1.2181537546100172e-07,-1.776843650928893e-06,1.4681739301625565e-06,4.484167428090834e-05,-4.353116294539012e-06,-0.00013295497146241855,-4.683215196565844e-07,-1.430370108864115e-05
1.6600971700552348e-05,3.4031255775217507e-07,-3.083333073237776e-05,-1.4233602903408591e-07,2.7067437257691403e-05,3.1103365924359597e-07,3.203742416700182e-05,3.018663124825007e-07,-2.260295498447782e-05,-2.129718867785929e-07,-4.5396863649191724e-05,-4.277429969593892e-07
8.416820235930718e-05,-0.00011427447830478915,-7.855115439233339e-06,1.1048230090661415e-05,2.410649039340587e-05,-3.243672863425216e-05,3.2581447815652025e-05,-4.421899957343656e-05,6.949925087020199e-05,-9.432322842041485e-05,-9.111227800219848e-05,0.00012365606970290988
-2.253862051094027e-05,-0.000263578389833756,-2.8508828179301835e-06,-3.6926780843131966e-05,-1.2849583754886984e-05,-0.00015022459791596762,-1.7554605466728757e-05,-0.00020556930469206938,3.864024112466854e-07,4.524879534425759e-06,3.070566411840243e-05,0.0003595718533744158
-8.931802545617635e-06,-2.693427666879513e-06,-1.3595402758283031e-05,-3.7412276804574176e-06,1.357948826361411e-05,3.4939774188330196e-06,1.3414181060216954e-05,3.6565251360586005e-06,-2.1807068661808433e-05,-5.944313286640902e-06,-1.3009552456196265e-05,-3.5462288268967718e-06
-7.898660204371487e-05,-7.943149043044065e-05,2.1784034480504776e-05,2.1391096668232825e-05,9.449299363532143e-06,8.859895010271575e-06,-1.5524191017570518e-05,-1.557286408044537e-05,-8.633990795245232e-05,-8.661060983724926e-05,6.927798651938308e-05,6.94951940885171e-05
5.579036861759652e-06,8.069416216221516e-05,-1.1272858180735998e-06,-1.4819928013414061e-05,8.499043058936951e-07,1.3584317766262167e-05,1.873650847463652e-06,2.708259254343608e-05,4.967029254809548e-06,7.179567614821851e-05,-5.711120032577885e-06,-8.255109911131132e-05
-2.4123032856407725e-06,2.217307903940209e-05,2.787839670701105e-06,-2.820851155275377e-05,-7.452529931846366e-07,6.382235267308762e-06,-2.3126243997962726e-06,2.2437062559859354e-05,-8.081485100135279e-07,7.840650076349474e-06,4.462595913686126e-06,-4.3296068182782296e-05
-2.9414987979811203e-06,-2.9586746629775107e-06,2.627202267183916e-05,3.272165151049257e-05,2.7189426598599707e-05,3.4057413553641516e-05,-9.470663962254239e-06,-1.181827844934846e-05,-3.68344230228506e-05,-4.5965042106880724e-05,3.4566997825094016e-05,4.313556125348523e-05
2.175658073848112e-05,-0.00025018182286611415,2.985274599439649e-06,-3.128760926577982e-05,6.413085866693023e-06,-6.775997015927987e-05,3.463423210789334e-07,-3.953575431309652e-06,2.7633705178152414e-05,-0.00031544495494530145,-1.4038393481681554e-05,0.0001602514165503499
0.00010321134072593594,3.182765868601752e-05,-3.377156210292338e-05,-1.011652197928435e-05,3.599546479507616e-05,1.1208359836645471e-05,6.239837638901194e-05,1.9212796637358732e-05,4.852335917007126e-05,1.4940604000399354e-05,-0.0001333920946961567,-4.107214541049925e-05
7.896902064305142e-05,-0.00015226458543118881,-3.374524655152915e-05,6.743512144926148e-05,4.3002095706553244e-05,-8.283497585075822e-05,6.347668206048776e-05,-0.00012293344783314598,3.82406002018363e-06,-7.405946053608975e-06,-0.00011356766426232415,0.00021994319924946437
2.3272961718003374e-05,-2.3629513097046025e-05,1.9176295922053877e-05,-1.9630104483584192e-05,-1.4329202573067036e-05,1.489455215767624e-05,-1.9884885769050516e-05,2.0333448577731367e-05,3.688722615636294e-05,-3.771932737943722e-05,1.706865249486182e-05,-1.7453686776296162e-05
-4.410507880258947e-06,-3.952554970691952e-06,-2.4522660536781867e-05,-1.756346670362145e-05,-7.61498063486521e-05,-5.4297962579118e-05,-9.929938747088411e-06,-7.089396695171123e-06,0.00010309406958448376,7.360314850062e-05,-3.262444013720162e-05,-2.32919461017121e-05
-1.4011323278328991e-05,-2.385681164580704e-05,1.1674312384908885e-05,1.940096373176728e-05,4.52340168808046e-06,7.319033138494975e-06,-6.639660139332536e-06,-1.1169846769151217e-05,-1.5395062498780752e-05,-2.589898963264916e-05,1.916618290920052e-05,3.224311512227797e-05
1.2915285081481324e-06,1.0787532263777328e-06,4.926221618377184e-05,1.88247147463955e-05,1.0292474080163868e-05,4.234047126737395e-06,-3.0741791443450635e-05,-1.1795925603784148e-05,-1.1683742094407588e-05,-4.483165946036647e-06,5.977872027063732e-05,2.2937678771875296e-05
-8.219967978136469e-05,-5.821657927162355e-05,1.0841784977590457e-05,7.519259445635867e-06,-1.924706603617307e-05,-1.3761813251723497e-05,-2.952122768164374e-05,-2.0911199111254587e-05,-7.0645618837413e-05,-5.0041435192937044e-05,8.62838445100534e-05,6.111868625829995e-05
0.00013767936507553397,-2.3653084991406056e-05,0.00014719927686997897,-2.734119229406886e-05,-4.087776903280611e-05,9.262030463042144e-06,-0.00014119213075332662,2.5574046496425196e-05,0.00017715589464308706,-3.208814161628727e-05,0.00016238598206299096,-2.9412876153147357e-05
-8.561997604483208e-05,-2.7568184948457107e-05,2.7311366387899536e-05,8.557793350910756e-06,-1.909158135276302e-06,-8.312151337528458e-07,-2.7539911440545902e-05,-8.846923812661205e-06,-8.022330226639326e-05,-2.5770941372962267e-05,8.745140262963157e-05,2.809289703218417e-05
3.7338766988683137e-07,2.5176484120453596e-06,-5.08870669257565e-06,-1.5554483347681846e-05,1.628929475034572e-05,5.1749917192485395e-05,9.268062875819345e-06,2.9380119799792773e-05,-2.0163858217098207e-05,-6.39202148261216e-05,-6.511548982610625e-06,-2.064186354307695e-05
-1.573347333733003e-05,3.2923161295377035e-05,1.4888072540482963e-05,-3.196675541617799e-05,-9.830406732208412e-07,1.7208496040494164e-06,-1.1367155557445155e-05,2.4075389960761303e-05,-1.0359351521653515e-05,2.1940882779691168e-05,2.503870147809676e-05,-5.303142894015015e-05
-1.3398792261730581e-05,-9.644608415879151e-06,1.6455618494389673e-05,1.116966473806917e-05,6.210075873755829e-06,4.006942311525171e-06,-8.93560544789544e-06,-6.178590053636506e-06,-1.6176918650311328e-05,-1.1185649282986028e-05,2.3586649112319804e-05,1.6309161864158954e-05
-3.032643125795752e-05,-6.063955013864506e-05,-9.056529573897402e-05,-0.00016535201689442044,-5.900891870451192e-05,-0.00010999212109303984,5.4216510422398084e-05,0.00010029408439364389,6.440554668888428e-05,0.00011914258746474442,-0.0001267113653941384,-0.00023440092834199622
4.118899303833337e-06,0.00016943579333741215,-4.747043229228171e-08,6.307267646527871e-06,1.5877413372551437e-06,7.056125567091176e-05,1.8802952216916862e-06,7.832904804110953e-05,3.0411542606696815e-06,0.00012668793465853145,-4.786914337914089e-06,-0.00019941253842351708
-6.977242295614847e-05,1.1338566239286422e-05,4.29846583819846e-05,-7.312092086122677e-06,-4.051486691772181e-05,6.588539917946152e-06,-6.151910807657406e-05,1.0102181131638882e-05,1.4994600048748698e-06,-2.4622945687117803e-07,0.00010753561189078345,-1.765864726241016e-05
4.027926079850502e-05,-8.498928215428317e-05,-2.267877460997332e-05,4.9000129492747686e-05,2.1216298965524762e-05,-4.470964487660739e-05,3.3398811271888665e-05,-7.079747391511813e-05,2.9783359439796635e-06,-6.313358268587193e-06,-6.0224189999887566e-05,0.00012766084654530774
-0.0004727419608586622,-0.00015086430962091626,-9.67371171280932e-05,-3.14343794908618e-05,-0.0002364585018170516,-7.599586373340309e-05,-0.0001573595435674438,-5.031642594659127e-05,-0.0004902104894381615,-0.0001567470216986694,0.0005151517403013117,0.00016472209949579264
-9.888203886874829e-06,-1.805914590425825e-05,1.2784555998242948e-05,2.2727430512614437e-05,-8.175403242399835e-07,-1.685401949332049e-06,-9.184866238819579e-06,-1.650436012255816e-05,-5.887424275243295e-06,-1.0579160099493919e-05,1.9025024515234232e-05,3.418621978541585e-05
-6.789400646263987e-06,2.3775625787341836e-05,9.227599937373541e-06,-3.4027982669377135e-05,-1.0716210392381492e-05,3.858565949038922e-05,-1.1312326838912356e-05,4.087559158906691e-05,9.458383661422893e-06,-3.4176613984236194e-05,1.531157877875523e-05,-5.532635766775443e-05
-1.640101930007248e-05,-1.1795522620012796e-05,7.370090512576525e-06,5.114662742331465e-06,1.2555008432619e-05,8.687806704318641e-06,-8.601955839598099e-07,-6.085965314671859e-07,-2.6097568486328424e-05,-1.846427714426429e-05,1.419619576399308e-05,1.0043943102129322e-05
5.280198376560923e-06,-6.516043788423195e-07,-5.5622767030103024e-06,8.166089029525176e-08,-5.80920030708032e-05,1.9061757339090108e-06,-1.6280991422311245e-05,5.435830526703649e-07,7.721956545809171e-05,-2.578175126366467e-06,-8.873569978517246e-06,2.9626710879513665e-07
0.00010303544065440491,4.39067367968512e-06,4.0747255360312805e-06,2.6821585115810573e-07,-1.1217392575402739e-05,-2.0733453610372727e-07,-1.0269010504406623e-05,-4.350689152976138e-07,0.0001323536095367353,5.607447895019822e-06,-4.624670005563738e-05,-1.959341810066958e-06
-8.587494461367255e-06,-6.630243910635703e-06,-3.956876952864591e-05,-2.861714749167023e-05,7.733977172359903e-07,3.0333418661936346e-07,2.8350789024108106e-05,2.0564802738343504e-05,-7.061013748470941e-06,-5.1218452772708875e-06,-4.646171191240254e-05,-3.370191706311178e-05
-1.9934971370424894e-06,2.447387670229985e-05,1.2155686110496239e-06,-1.0938084599462848e-06,2.411930122767211e-05,-9.836554737198758e-05,7.445173391486086e-06,-3.15331445882726e-05,-3.149431242092417e-05,0.0001333904067852762,2.2026106372114536e-06,-9.328894848074183e-06
-3.918507167918837e-05,-8.151170471770892e-05,1.4870363941896312e-05,3.038848590397776e-05,-1.6619716852731524e-05,-3.469153470417666e-05,-2.7138770460647006e-05,-5.6373313676367186e-05,-1.1752141968848643e-05,-2.4411834962818294e-05,5.3471190001999624e-05,0.00011107165562280856
-2.959717982360839e-05,5.7404803075311595e-05,2.4413231883766134e-05,-4.857001774514341e-05,-9.568801163692192e-06,1.8287704531366484e-05,-2.3761487653347572e-05,4.650602172782004e-05,-1.0430278108420482e-05,2.0414157034863694e-05,4.688531167120792e-05,-9.17640071660085e-05
-1.597727001659277e-06,-2.353849992957173e-05,2.429440099397436e-06,3.1207600151635095e-05,-2.2406968718761554e-06,-3.0882672707320275e-05,-2.6533916703161647e-06,-3.6056989464328636e-05,1.7689323669639633e-06,2.403805530569415e-05,3.809935583084167e-06,5.1773286513204404e-05
-5.902104645117453e-06,-1.5007117229745483e-05,1.0860497146887582e-05,2.10103214939349e-05,4.748226205503821e-06,7.789179836798681e-06,-5.534985263634532e-06,-1.1338826123730682e-05,-9.227034824955092e-06,-1.890226234298447e-05,1.4224706286573895e-05,2.9140361457564382e-05
2.976677268931333e-06,-0.00014818784954702402,1.625522126177511e-07,6.811579741748544e-07,9.970153503710842e-07,-4.039517526449772e-05,7.968618798831066e-07,-3.9061966589612127e-05,3.0247152754414868e-06,-0.0001482707731604825,-2.872247457194935e-06,0.00014079683950562333
0.00010823809317930637,1.2972475919048512e-05,2.1343933432903944e-05,2.5859194700424116e-06,1.0209712578145317e-05,1.390661531146443e-06,-2.6459756381227995e-05,-3.1761990021057806e-06,0.000145798786843572,1.7501520218430027e-05,-2.428726787325787e-05,-2.9154159574064126e-06
0.00011046182739230838,0.0001349061542652713,3.797696719351918e-05,4.623741592556241e-05,-2.1207621153443e-05,-2.4287848413510026e-05,-4.978919457508408e-05,-6.0671408222939816e-05,0.00015239407104773728,0.00018570219852321462,1.3563955024968903e-05,1.652857129866769e-05
-5.539708385649445e-06,-2.4242142604540538e-06,-1.439032982293348e-05,-5.688409478223685e-06,9.676606435659414e-06,3.627364322331117e-06,1.265232832108336e-05,4.9791202962140785e-06,-1.4955983054056e-05,-5.8856865617527235e-06,-1.4998162903571933e-05,-5.902285763060796e-06
-2.517514480581849e-05,-2.399841519981616e-06,-1.724221877571694e-05,-1.5129242558492725e-06,2.489255055010452e-05,1.8750284132292125e-06,2.0304107613369673e-05,1.7438691997631497e-06,-4.7739276645066865e-05,-4.1002074922754685e-06,-1.2532753610815022e-05,-1.0764069727314492e-06
-5.293297396394021e-05,-7.008693309579206e-05,1.7757599701742014e-05,2.3073934271312848e-05,5.1847237949454025e-06,6.387462391856742e-06,-1.3526042261190457e-05,-1.7866082107236437e-05,-5.5085183790040335e-05,-7.276011692709458e-05,5.0572993039538217e-05,6.680011999116338e-05
1.1706428371301971e-05,-6.0012016107713166e-05,6.7115466240235625e-06,-3.496303844602831e-05,-4.799040893609997e-06,2.64347868203672e-05,-7.656590406325157e-06,3.973886500880687e-05,1.706114431356768e-05,-8.854992559253864e-05,5.183397872850519e-06,-2.690262080442228e-05
-2.7208452245112806e-05,-9.031074656089527e-06,-5.315393532132236e-05,-2.1504023003355395e-06,-0.0003536038765350122,-2.587420435426729e-06,-9.424504208455087e-05,-9.349854176271647e-07,0.00047254588493270133,4.688029224661299e-06,-6.378157360200764e-05,-6.327636967649696e-07
5.887250062581225e-05,2.157996731420907e-05,-4.322801897441511e-05,-1.5238013849940609e-05,7.621354403960015e-05,2.7499774129950954e-05,7.561222863557496e-05,2.731254267925292e-05,-7.088979778522957e-05,-2.5606712862074124e-05,-9.861641518092712e-05,-3.5622082526962605e-05
6.043841959477766e-05,-6.003806599281592e-06,2.2009912395428224e-05,-2.2351274368760557e-06,-3.9230619697858474e-05,4.570722853012763e-06,-3.080258651763515e-05,3.2092640468852165e-06,9.7098550548496e-05,-1.0116516906836896e-05,7.021835108895948e-06,-7.315919052847857e-07
-3.110327518810038e-05,-0.00013616995470802987,6.708137940541928e-06,2.7930735058020757e-05,-8.48702785960216e-06,-3.8019443293289476e-05,-1.4553438870286732e-05,-6.369197337295976e-05,-2.172086464820441e-05,-9.505964501872223e-05,3.616732063869109e-05,0.0001582834162854735
-7.162218601331952e-07,6.3749472112968825e-06,5.611804483830014e-06,-3.1854623092377604e-05,3.580333215794085e-06,-1.9448666625382534e-05,-2.6990615359881063e-06,1.5294482261544182e-05,-4.891517486813415e-06,2.771823703778993e-05,7.1270218030957885e-06,-4.0385929365327304e-05
8.001027897710546e-05,-1.28504767278896e-05,-8.62158008250167e-06,1.465382379804307e-06,1.2270078051924505e-05,-1.8835235250348693e-06,1.988547526070132e-05,-3.1926962542743473e-06,7.965016288578354e-05,-1.2788166908957047e-05,-7.37022341235332e-05,1.1833202059941851e-05
-8.16399214797689e-05,3.63071588138841e-05,1.1236139225601722e-05,-5.138379056060429e-06,3.3891532938724054e-06,-1.7156195249572203e-06,-1.0083384655376485e-05,4.487750439597575e-06,-9.211957862015861e-05,4.0999098375933164e-05,6.251168386147473e-05,-2.7821693440974703e-05
-5.236006153489761e-06,4.174231198436889e-05,6.417782965613015e-06,-6.233934021093821e-05,-4.260626755675967e-06,3.579317183531258e-05,-6.511506972600679e-06,5.833990090907664e-05,1.7352581997027983e-06,-1.554706028086936e-05,1.0615997055307518e-05,-9.511411396221324e-05
8.100484669501702e-05,1.1545309023269171e-05,-6.9246081044571466e-06,-9.111524085279692e-07,1.2122237910628091e-05,1.8154586186378669e-06,1.787061785031921e-05,2.548459936824144e-06,8.320897141764032e-05,1.1866110719748824e-05,-7.188583064387903e-05,-1.0251361254304866e-05
6.174503197144609e-06,2.6362147805924336e-06,-1.3231545025227257e-05,-3.735844287622661e-06,-2.3248211384891814e-06,-2.4532710931039436e-07,7.896477048901975e-06,2.4029144652627722e-06,6.698516445003159e-06,2.0383725504193842e-06,-1.715181374579728e-05,-5.219332760677186e-06
-3.182633262988283e-05,2.241047265196883e-05,1.8310292007614384e-05,-1.306852563777005e-05,5.365757706918056e-06,-3.930039814167613e-06,-1.2150774263057365e-05,8.591645605376735e-06,-3.193411737050563e-05,2.2580175816619853e-05,3.690223104883036e-05,-2.609306076759455e-05
2.501310148861043e-05,6.78734918261746e-06,-3.5408681540193e-05,-8.877481102828816e-06,5.850762399817015e-05,1.5111251330815912e-05,5.0286953224692836e-05,1.2976078210603622e-05,-6.140154722738406e-05,-1.5844095296737616e-05,-5.865868859277531e-05,-1.5136326265587693e-05
6.552699359918448e-06,-9.607052211011227e-05,-1.0369032703184272e-06,1.726227669162023e-05,1.6294006786012538e-06,-2.2373446885980055e-05,2.61119579412735e-06,-3.828949040247855e-05,5.262010772768872e-06,-7.715994006838103e-05,-7.152436465209856e-06,0.00010488035711643182
0.00015191357165333583,1.1994106230757678e-05,4.287522020871969e-05,3.3810504883477694e-06,4.068631055741557e-05,3.4142329209081246e-06,-6.106414666630974e-05,-4.8397099717797975e-06,0.00021227168990994513,1.6823839691032863e-05,4.3080133999591616e-06,3.4143661294862445e-07
0.00011730584140531505,0.0001451157998857075,2.9886853705873156e-05,3.700576875436453e-05,3.5594282302411386e-05,4.4448877958160916e-05,-3.826053017604806e-05,-4.736923923483096e-05,0.00016613310424366465,0.00020568451936061813,-1.3401368603679171e-05,-1.659184105763439e-05
-2.0614714802604656e-05,-2.4185901853225264e-05,3.1727482799156614e-05,3.593786811043227e-05,-2.658722381461984e-05,-3.0681943212709176e-05,-3.340799215162133e-05,-3.834986645789157e-05,1.958541979361428e-05,2.2482591297256268e-05,4.927525751030441e-05,5.656429565183054e-05
2.8493999090609167e-06,-6.423595819741177e-06,-8.82182037074096e-06,1.5246349849639502e-05,-4.852631010717596e-06,7.813557641763347e-06,4.276511623895699e-06,-7.4922878370803445e-06,7.535458268551065e-06,-1.3201840027003047e-05,-1.1187944705508658e-05,1.9600859160684263e-05
1.1850915446252538e-05,3.26521366172507e-05,-5.678497977264305e-06,-1.5177292741062193e-05,-5.602200023016222e-06,-1.4789945909808241e-05,2.1206209743978655e-06,5.779100839592346e-06,1.557434044149571e-05,4.244307917736223e-05,-1.130048205580359e-05,-3.0795991421822804e-05
-1.3212828603054085e-05,3.104809782587337e-05,1.7500613933559526e-05,-4.377223886366591e-05,-2.677435266438535e-05,6.53283088340121e-05,-2.4306094255323145e-05,5.938533771530918e-05,2.700985515496435e-05,-6.599124290270798e-05,2.9649318316837814e-05,-7.244005403659118e-05
5.666207600548562e-05,9.181387423387892e-06,-4.1022957398114714e-05,-3.758539048394436e-06,-4.106874191559841e-05,-2.919958005059007e-06,1.4090254520010125e-05,1.7037787056564419e-06,8.624434993380857e-05,1.0428575771411928e-05,-6.670803859157651e-05,-8.066265622599694e-06
